! Created Tue Dec 15 14:22:07 2020
# hz S ma R 50
! 2 Port Network Data from Sweep1.SP1.SP block
! freq  magS11  angS11  magS21  angS21  magS12  angS12  magS22  angS22  
!     
           1.4e+10       0.137527521         40.4793296        0.915388835        -23.3158838        0.915388835        -23.3158838         0.15344605         39.8235702
          1.41e+10       0.138284102         40.4663922         0.91519056        -23.4813848         0.91519056        -23.4813848        0.154342903         39.7706877
          1.42e+10       0.139041165         40.4521158        0.914991782         -23.646925        0.914991782         -23.646925        0.155240451         39.7163219
          1.43e+10       0.139798704         40.4365287        0.914792506        -23.8125062        0.914792506        -23.8125062        0.156138693          39.660499
          1.44e+10       0.140556718         40.4196589        0.914592736        -23.9781306        0.914592736        -23.9781306        0.157037629         39.6032449
          1.45e+10       0.141315204         40.4015337        0.914392478           -24.1438        0.914392478           -24.1438        0.157937258         39.5445848
          1.46e+10        0.14207416         40.3821802        0.914191735        -24.3095166        0.914191735        -24.3095166        0.158837581         39.4845434
          1.47e+10       0.142833586         40.3616247         0.91399051        -24.4752823         0.91399051        -24.4752823        0.159738601         39.4231448
          1.48e+10       0.143593482         40.3398935        0.913788808        -24.6410993        0.913788808        -24.6410993        0.160640318         39.3604127
          1.49e+10       0.144353849         40.3170121        0.913586632        -24.8069696        0.913586632        -24.8069696        0.161542736           39.29637
           1.5e+10       0.145114688         40.2930056        0.913383983        -24.9728955        0.913383983        -24.9728955        0.162445858         39.2310394
          1.51e+10       0.145876003         40.2678988        0.913180864        -25.1388791        0.913180864        -25.1388791        0.163349688          39.164443
          1.52e+10       0.146637797         40.2417159        0.912977278        -25.3049226        0.912977278        -25.3049226        0.164254231         39.0966023
          1.53e+10       0.147400074         40.2144808        0.912773225        -25.4710282        0.912773225        -25.4710282        0.165159492         39.0275385
          1.54e+10       0.148162841          40.186217        0.912568706        -25.6371982        0.912568706        -25.6371982        0.166065478         38.9572722
          1.55e+10       0.148926103         40.1569473        0.912363722        -25.8034348        0.912363722        -25.8034348        0.166972195         38.8858235
          1.56e+10       0.149689867         40.1266945        0.912158274        -25.9697404        0.912158274        -25.9697404         0.16787965         38.8132122
          1.57e+10       0.150454142         40.0954807        0.911952361        -26.1361173        0.911952361        -26.1361173        0.168787852         38.7394577
          1.58e+10       0.151218937         40.0633276        0.911745983        -26.3025678        0.911745983        -26.3025678        0.169696809         38.6645788
          1.59e+10       0.151984261         40.0302565        0.911539138        -26.4690944        0.911539138        -26.4690944        0.170606531         38.5885939
           1.6e+10       0.152750125         39.9962886        0.911331826        -26.6356995        0.911331826        -26.6356995        0.171517027         38.5115211
