! Created Tue Dec 15 14:20:56 2020
# hz S ma R 50
! 2 Port Network Data from Sweep1.SP1.SP block
! freq  magS11  angS11  magS21  angS21  magS12  angS12  magS22  angS22  
!     
           1.4e+10      0.0434414437        -73.5874406        0.955573093        -13.5309066        0.955573093        -13.5309066        0.058300939        -53.7632581
          1.41e+10      0.0425723744        -72.9929996         0.95555607        -13.7045028         0.95555607        -13.7045028       0.0576643872        -53.1140812
          1.42e+10       0.041720256        -72.3745124         0.95553828        -13.8774999         0.95553828        -13.8774999       0.0570461949        -52.4552069
          1.43e+10      0.0408851703        -71.7312177        0.955519754        -14.0499104        0.955519754        -14.0499104       0.0564462421        -51.7868165
          1.44e+10       0.040067216        -71.0623468        0.955500524        -14.2217461        0.955500524        -14.2217461         0.05586441        -51.1091099
          1.45e+10       0.039266509        -70.3671265        0.955480618        -14.3930187        0.955480618        -14.3930187       0.0553005801        -50.4223054
          1.46e+10      0.0384831819        -69.6447832        0.955460064        -14.5637395        0.955460064        -14.5637395       0.0547546341          -49.72664
          1.47e+10      0.0377173841         -68.894547        0.955438891        -14.7339195        0.955438891        -14.7339195        0.054226453        -49.0223695
          1.48e+10      0.0369692815        -68.1156574        0.955417124        -14.9035694        0.955417124        -14.9035694       0.0537159168        -48.3097687
          1.49e+10      0.0362390566        -67.3073686         0.95539479        -15.0726997         0.95539479        -15.0726997       0.0532229039        -47.5891312
           1.5e+10      0.0355269075        -66.4689566        0.955371911        -15.2413205        0.955371911        -15.2413205       0.0527472905        -46.8607691
          1.51e+10      0.0348330479        -65.5997264        0.955348513        -15.4094417        0.955348513        -15.4094417       0.0522889505        -46.1250131
          1.52e+10      0.0341577062        -64.6990206        0.955324618        -15.5770731        0.955324618        -15.5770731       0.0518477546        -45.3822116
          1.53e+10      0.0335011247        -63.7662283        0.955300248        -15.7442239        0.955300248        -15.7442239       0.0514235699        -44.6327308
          1.54e+10      0.0328635588        -62.8007957        0.955275425        -15.9109035        0.955275425        -15.9109035       0.0510162601        -43.8769535
          1.55e+10      0.0322452755        -61.8022366        0.955250168        -16.0771206        0.955250168        -16.0771206       0.0506256841        -43.1152789
          1.56e+10      0.0316465523        -60.7701443        0.955224499         -16.242884        0.955224499         -16.242884       0.0502516966        -42.3481217
          1.57e+10      0.0310676751        -59.7042045        0.955198436        -16.4082023        0.955198436        -16.4082023       0.0498941471        -41.5759106
          1.58e+10      0.0305089367        -58.6042082        0.955171998        -16.5730836        0.955171998        -16.5730836       0.0495528802        -40.7990883
          1.59e+10      0.0299706345        -57.4700652        0.955145202        -16.7375362        0.955145202        -16.7375362       0.0492277349        -40.0181094
           1.6e+10      0.0294530678        -56.3018187        0.955118067        -16.9015678        0.955118067        -16.9015678       0.0489185443        -39.2334398
