! Created Tue Dec 15 14:17:42 2020
# hz S ma R 50
! 2 Port Network Data from Sweep1.SP1.SP block
! freq  magS11  angS11  magS21  angS21  magS12  angS12  magS22  angS22  
!     
           1.4e+10        0.18065776        -84.5810496        0.919535194         -5.1305085        0.919535194         -5.1305085        0.194441853        -72.6984873
          1.41e+10       0.179623577        -84.6666252        0.919654713        -5.30552652        0.919654713        -5.30552652        0.193471029        -72.7301597
          1.42e+10       0.178606323        -84.7514835        0.919770849        -5.47956915        0.919770849        -5.47956915        0.192516425        -72.7616136
          1.43e+10       0.177605659        -84.8356559        0.919883695        -5.65265551        0.919883695        -5.65265551        0.191577732        -72.7928758
          1.44e+10       0.176621254        -84.9191733        0.919993337        -5.82480415        0.919993337        -5.82480415        0.190654647        -72.8239727
          1.45e+10       0.175652784        -85.0020662        0.920099858        -5.99603312        0.920099858        -5.99603312         0.18974688        -72.8549297
          1.46e+10       0.174699929        -85.0843644        0.920203337           -6.16636        0.920203337           -6.16636        0.188854148        -72.8857714
          1.47e+10       0.173762376        -85.1660973        0.920303848        -6.33580188        0.920303848        -6.33580188        0.187976179        -72.9165217
          1.48e+10       0.172839819        -85.2472939        0.920401463        -6.50437545        0.920401463        -6.50437545        0.187112707        -72.9472034
          1.49e+10       0.171931956        -85.3279829        0.920496248        -6.67209694        0.920496248        -6.67209694        0.186263475        -72.9778386
           1.5e+10       0.171038491        -85.4081925        0.920588266        -6.83898224        0.920588266        -6.83898224        0.185428235        -73.0084483
          1.51e+10       0.170159133        -85.4879505        0.920677577        -7.00504683        0.920677577        -7.00504683        0.184606745        -73.0390523
          1.52e+10       0.169293596        -85.5672845        0.920764238        -7.17030585        0.920764238        -7.17030585        0.183798769        -73.0696698
          1.53e+10         0.1684416        -85.6462217        0.920848303        -7.33477414        0.920848303        -7.33477414        0.183004079        -73.1003186
          1.54e+10       0.167602869        -85.7247891        0.920929822        -7.49846619        0.920929822        -7.49846619        0.182222451        -73.1310156
          1.55e+10       0.166777133        -85.8030135        0.921008843        -7.66139621        0.921008843        -7.66139621        0.181453667        -73.1617766
          1.56e+10       0.165964126        -85.8809213        0.921085412        -7.82357814        0.921085412        -7.82357814        0.180697514        -73.1926164
          1.57e+10       0.165163587        -85.9585387        0.921159572        -7.98502564        0.921159572        -7.98502564        0.179953782        -73.2235487
          1.58e+10       0.164375261        -86.0358918        0.921231366        -8.14575212        0.921231366        -8.14575212        0.179222267        -73.2545865
          1.59e+10       0.163598896        -86.1130062        0.921300832        -8.30577075        0.921300832        -8.30577075        0.178502766        -73.2857415
           1.6e+10       0.162834247        -86.1899075         0.92136801        -8.46509444         0.92136801        -8.46509444        0.177795082        -73.3170249
