! Created Tue Dec 15 14:17:14 2020
# hz S ma R 50
! 2 Port Network Data from Sweep1.SP1.SP block
! freq  magS11  angS11  magS21  angS21  magS12  angS12  magS22  angS22  
!     
           1.4e+10       0.181661856         42.1425635        0.896164508        -25.7737956        0.896164508        -25.7737956        0.200109346         38.5979707
          1.41e+10       0.183059424          42.127316        0.895772935         -25.978309        0.895772935         -25.978309        0.201661655         38.5271196
          1.42e+10       0.184466706         42.1098474        0.895376194        -26.1833844        0.895376194        -26.1833844        0.203223594         38.4540449
          1.43e+10       0.185883818         42.0901791         0.89497419        -26.3890297         0.89497419        -26.3890297        0.204795237         38.3787645
          1.44e+10       0.187310884         42.0683318        0.894566829        -26.5952528        0.894566829        -26.5952528        0.206376662         38.3012951
          1.45e+10       0.188748028          42.044326        0.894154014        -26.8020618        0.894154014        -26.8020618        0.207967945         38.2216529
          1.46e+10       0.190195375         42.0181816        0.893735647        -27.0094647        0.893735647        -27.0094647        0.209569166         38.1398535
          1.47e+10       0.191653055         41.9899179        0.893311628        -27.2174698        0.893311628        -27.2174698        0.211180405         38.0559116
          1.48e+10       0.193121199         41.9595539        0.892881854        -27.4260854        0.892881854        -27.4260854        0.212801745         37.9698413
          1.49e+10        0.19459994         41.9271079        0.892446223          -27.63532        0.892446223          -27.63532         0.21443327          37.881656
           1.5e+10       0.196089411         41.8925977        0.892004629        -27.8451822        0.892004629        -27.8451822        0.216075064         37.7913685
          1.51e+10        0.19758975         41.8560407        0.891556965        -28.0556805        0.891556965        -28.0556805        0.217727216         37.6989908
          1.52e+10       0.199101093         41.8174535        0.891103123        -28.2668238        0.891103123        -28.2668238        0.219389816         37.6045342
          1.53e+10        0.20062358          41.776852         0.89064299         -28.478621         0.89064299         -28.478621        0.221062954         37.5080097
          1.54e+10       0.202157351         41.7342516        0.890176454         -28.691081        0.890176454         -28.691081        0.222746725         37.4094274
          1.55e+10       0.203702547         41.6896668        0.889703401        -28.9042129        0.889703401        -28.9042129        0.224441226         37.3087968
          1.56e+10       0.205259309         41.6431115        0.889223713        -29.1180259        0.889223713        -29.1180259        0.226146555          37.206127
          1.57e+10       0.206827781         41.5945984         0.88873727        -29.3325293         0.88873727        -29.3325293        0.227862814         37.1014265
          1.58e+10       0.208408105         41.5441397        0.888243953        -29.5477325        0.888243953        -29.5477325        0.229590106         36.9947033
          1.59e+10       0.210000428         41.4917466        0.887743635        -29.7636449        0.887743635        -29.7636449         0.23132854          36.885965
           1.6e+10       0.211604894         41.4374291        0.887236193        -29.9802761        0.887236193        -29.9802761        0.233078224         36.7752185
