! Created Tue Dec 15 14:19:02 2020
# hz S ma R 50
! 2 Port Network Data from Sweep1.SP1.SP block
! freq  magS11  angS11  magS21  angS21  magS12  angS12  magS22  angS22  
!     
           1.4e+10      0.0656624608          94.834641        0.913147225         2.03132282        0.913147225         2.03132282         0.09841091         68.4452099
          1.41e+10      0.0625023468         92.8437501        0.913771417         1.56997419        0.913771417         1.56997419        0.094791542         67.6861254
          1.42e+10      0.0594021323         90.7345383        0.914368325         1.11156463        0.914368325         1.11156463       0.0912013281         66.8996352
          1.43e+10      0.0563659121          88.490026        0.914938485        0.656034518        0.914938485        0.656034518       0.0876403146         66.0824993
          1.44e+10       0.053398716          86.090488        0.915482408        0.203325761        0.915482408        0.203325761       0.0841086362         65.2309964
          1.45e+10       0.050506714         83.5130348        0.916000589        -0.24661827        0.916000589        -0.24661827       0.0806065317         64.3408317
          1.46e+10      0.0476974661           80.73119        0.916493502       -0.693852721        0.916493502       -0.693852721       0.0771343632         63.4070229
          1.47e+10      0.0449802261         77.7145224        0.916961601        -1.13843127        0.916961601        -1.13843127       0.0736926401         62.4237592
          1.48e+10      0.0423662985         74.4284368        0.917405324        -1.58040615        0.917405324        -1.58040615       0.0702820494         61.3842245
          1.49e+10      0.0398694471         70.8343019         0.91782509        -2.01982809         0.91782509        -2.01982809       0.0669034942         60.2803758
           1.5e+10      0.0375063311         66.8902036        0.918221303        -2.45674642        0.918221303        -2.45674642        0.063558143         59.1026626
          1.51e+10      0.0352969182         62.5527498        0.918594352        -2.89120897        0.918594352        -2.89120897       0.0602474941         57.8396698
          1.52e+10      0.0332647743          57.780495         0.91894461        -3.32326215         0.91894461        -3.32326215       0.0569734583         56.4776588
          1.53e+10       0.031437061         52.5396027         0.91927244        -3.75295094         0.91927244        -3.75295094       0.0537384698         54.9999771
          1.54e+10      0.0298439929         46.8121328        0.919578191        -4.18031891        0.919578191        -4.18031891       0.0505456319         53.3862914
          1.55e+10      0.0285174603          40.606558        0.919862203        -4.60540824        0.919862203        -4.60540824       0.0473989143         51.6115898
          1.56e+10      0.0274885848         33.9685765        0.920124808        -5.02825979        0.920124808        -5.02825979       0.0443034208         49.6448814
          1.57e+10      0.0267842425         26.9883456        0.920366329        -5.44891315        0.920366329        -5.44891315       0.0412657552          47.447505
          1.58e+10      0.0264230834          19.799212        0.920587086        -5.86740667        0.920587086        -5.86740667       0.0382945279         44.9709525
          1.59e+10      0.0264120953         12.5647433        0.920787391        -6.28377762        0.920787391        -6.28377762       0.0354010577         42.1541306
           1.6e+10      0.0267449161         5.45586269        0.920967554         -6.6980622        0.920967554         -6.6980622       0.0326003461         38.9200765
