! Created Tue Dec 15 14:18:20 2020
# hz S ma R 50
! 2 Port Network Data from Sweep1.SP1.SP block
! freq  magS11  angS11  magS21  angS21  magS12  angS12  magS22  angS22  
!     
           1.4e+10      0.0670002627        -9.99974937         0.90259121        -43.7520286         0.90259121        -43.7520286       0.0497079258        -60.1470014
          1.41e+10      0.0677269557        -9.90266754        0.901888291        -44.0948889        0.901888291        -44.0948889       0.0496430739        -60.3236808
          1.42e+10      0.0684721039        -9.81014745        0.901177851        -44.4383949        0.901177851        -44.4383949       0.0495709017        -60.4971316
          1.43e+10      0.0692359312        -9.72245502        0.900459895        -44.7825454        0.900459895        -44.7825454       0.0494909567        -60.6673112
          1.44e+10      0.0700186516        -9.63984959        0.899734436         -45.127339        0.899734436         -45.127339       0.0494027581        -60.8341524
          1.45e+10      0.0708204681        -9.56258342        0.899001501         -45.472774        0.899001501         -45.472774       0.0493057969        -60.9975593
          1.46e+10      0.0716415723        -9.49090103        0.898261126        -45.8188483        0.898261126        -45.8188483       0.0491995352        -61.1574029
          1.47e+10      0.0724821437        -9.42503861        0.897513364        -46.1655594        0.897513364        -46.1655594       0.0490834065        -61.3135169
          1.48e+10      0.0733423483        -9.36522343        0.896758279        -46.5129046        0.896758279        -46.5129046       0.0489568159        -61.4656921
          1.49e+10      0.0742223386        -9.31167317        0.895995953        -46.8608811        0.895995953        -46.8608811       0.0488191407         -61.613671
           1.5e+10      0.0751222522        -9.26459531        0.895226484        -47.2094856        0.895226484        -47.2094856       0.0486697324        -61.7571421
          1.51e+10      0.0760422115        -9.22418649        0.894449989        -47.5587148        0.894449989        -47.5587148       0.0485079174        -61.8957333
          1.52e+10      0.0769823226        -9.19063183        0.893666603        -47.9085654        0.893666603        -47.9085654       0.0483330002        -62.0290055
          1.53e+10       0.077942675        -9.16410431        0.892876484        -48.2590339        0.892876484        -48.2590339        0.048144266        -62.1564454
          1.54e+10      0.0789233409        -9.14476418         0.89207981        -48.6101172         0.89207981        -48.6101172       0.0479409837        -62.2774585
          1.55e+10      0.0799243746        -9.13275832        0.891276784         -48.961812        0.891276784         -48.961812       0.0477224102        -62.3913616
          1.56e+10      0.0809458124        -9.12821975         0.89046763        -49.3141155         0.89046763        -49.3141155       0.0474877946        -62.4973753
          1.57e+10      0.0819876719        -9.13126708        0.889652599        -49.6670254        0.889652599        -49.6670254       0.0472363825        -62.5946157
          1.58e+10      0.0830499525        -9.14200414        0.888831969        -50.0205397        0.888831969        -50.0205397       0.0469674209        -62.6820866
          1.59e+10      0.0841326344         -9.1605196         0.88800604        -50.3746574         0.88800604        -50.3746574       0.0466801634        -62.7586703
           1.6e+10      0.0852356793        -9.18688676        0.887175142        -50.7293779        0.887175142        -50.7293779       0.0463738746        -62.8231184
