! Created Tue Dec 15 14:15:30 2020
# hz S ma R 50
! 2 Port Network Data from Sweep1.SP1.SP block
! freq  magS11  angS11  magS21  angS21  magS12  angS12  magS22  angS22  
!     
           1.4e+10      0.0870873721          28.508056        0.918764032        -19.8659111        0.918764032        -19.8659111         0.11044152         25.6976856
          1.41e+10      0.0875487478         28.9831578         0.91903968         -20.036795         0.91903968         -20.036795        0.110964474         25.9937971
          1.42e+10      0.0880248922         29.4503492        0.919310808        -20.2078169        0.919310808        -20.2078169        0.111498144         26.2846625
          1.43e+10      0.0885154887         29.9094979        0.919577438        -20.3789727        0.919577438        -20.3789727        0.112042324         26.5702373
          1.44e+10      0.0890202186         30.3604883        0.919839597        -20.5502583        0.919839597        -20.5502583        0.112596802         26.8504836
          1.45e+10      0.0895387614         30.8032213        0.920097309        -20.7216695        0.920097309        -20.7216695        0.113161372         27.1253698
          1.46e+10      0.0900707955         31.2376135        0.920350601        -20.8932025        0.920350601        -20.8932025        0.113735823         27.3948703
          1.47e+10      0.0906159994         31.6635967        0.920599499        -21.0648534        0.920599499        -21.0648534        0.114319948         27.6589655
          1.48e+10      0.0911740514         32.0811172        0.920844032        -21.2366185        0.920844032        -21.2366185        0.114913538         27.9176413
          1.49e+10      0.0917446308         32.4901353        0.921084227        -21.4084941        0.921084227        -21.4084941        0.115516387         28.1708891
           1.5e+10      0.0923274182         32.8906245        0.921320112        -21.5804766        0.921320112        -21.5804766        0.116128288         28.4187052
          1.51e+10      0.0929220961         33.2825708        0.921551716        -21.7525626        0.921551716        -21.7525626        0.116749037         28.6610912
          1.52e+10       0.093528349         33.6659724        0.921779068        -21.9247487        0.921779068        -21.9247487         0.11737843          28.898053
          1.53e+10      0.0941458643         34.0408386        0.922002197        -22.0970315        0.922002197        -22.0970315        0.118016265         29.1296012
          1.54e+10      0.0947743322         34.4071891        0.922221134         -22.269408        0.922221134         -22.269408        0.118662343         29.3557504
          1.55e+10      0.0954134466         34.7650538        0.922435909         -22.441875        0.922435909         -22.441875        0.119316467         29.5765193
          1.56e+10      0.0960629048         35.1144718        0.922646551        -22.6144295        0.922646551        -22.6144295        0.119978439         29.7919302
          1.57e+10      0.0967224084         35.4554909        0.922853092        -22.7870684        0.922853092        -22.7870684        0.120648066         30.0020092
          1.58e+10      0.0973916629         35.7881667        0.923055562         -22.959789        0.923055562         -22.959789        0.121325158         30.2067853
          1.59e+10      0.0980703785         36.1125625        0.923253992        -23.1325885        0.923253992        -23.1325885        0.122009524         30.4062909
           1.6e+10        0.09875827         36.4287482        0.923448414        -23.3054642        0.923448414        -23.3054642        0.122700979         30.6005613
