! Created Tue Dec 15 14:15:00 2020
# hz S ma R 50
! 2 Port Network Data from Sweep1.SP1.SP block
! freq  magS11  angS11  magS21  angS21  magS12  angS12  magS22  angS22  
!     
           1.4e+10      0.0385891436        -33.5673929        0.940826814        -14.9181066        0.940826814        -14.9181066       0.0618147511        -27.7036204
          1.41e+10       0.038485502        -32.1922154        0.940618931         -15.089664        0.940618931         -15.089664       0.0618025031        -26.9174537
          1.42e+10      0.0384113602        -30.8278345        0.940412124        -15.2605278        0.940412124        -15.2605278       0.0618076233        -26.1423447
          1.43e+10      0.0383658236        -29.4763696        0.940206418        -15.4307129        0.940206418        -15.4307129        0.061829444        -25.3786051
          1.44e+10      0.0383479661        -28.1398216        0.940001839        -15.6002336        0.940001839        -15.6002336       0.0618673092        -24.6265116
          1.45e+10      0.0383568355        -26.8200599        0.939798412        -15.7691039        0.939798412        -15.7691039        0.061920575        -23.8863064
          1.46e+10      0.0383914583         -25.518812        0.939596157        -15.9373373        0.939596157        -15.9373373       0.0619886103        -23.1581988
          1.47e+10      0.0384508452        -24.2376562        0.939395095        -16.1049471        0.939395095        -16.1049471       0.0620707974        -22.4423653
          1.48e+10       0.038533996        -22.9780165        0.939195247        -16.2719461        0.939195247        -16.2719461       0.0621665322        -21.7389522
          1.49e+10      0.0386399046        -21.7411597        0.938996629         -16.438347        0.938996629         -16.438347       0.0622752251        -21.0480756
           1.5e+10      0.0387675642        -20.5281955        0.938799259        -16.6041619        0.938799259        -16.6041619        0.062396301         -20.369824
          1.51e+10      0.0389159713        -19.3400777        0.938603152        -16.7694028        0.938603152        -16.7694028       0.0625291994        -19.7042589
          1.52e+10      0.0390841301        -18.1776086        0.938408323        -16.9340814        0.938408323        -16.9340814       0.0626733751        -19.0514166
          1.53e+10      0.0392710568        -17.0414435        0.938214785        -17.0982089        0.938214785        -17.0982089       0.0628282981        -18.4113098
          1.54e+10      0.0394757826        -15.9320975         0.93802255        -17.2617963         0.93802255        -17.2617963       0.0629934536        -17.7839291
          1.55e+10      0.0396973571        -14.8499532         0.93783163        -17.4248546         0.93783163        -17.4248546       0.0631683423        -17.1692443
          1.56e+10      0.0399348509        -13.7952691        0.937642035        -17.5873941        0.937642035        -17.5873941       0.0633524801        -16.5672062
          1.57e+10       0.040187358        -12.7681882        0.937453776        -17.7494251        0.937453776        -17.7494251       0.0635453983        -15.9777478
          1.58e+10      0.0404539977        -11.7687477        0.937266859        -17.9109577        0.937266859        -17.9109577       0.0637466433        -15.4007859
          1.59e+10      0.0407339162         -10.796888        0.937081295        -18.0720014        0.937081295        -18.0720014       0.0639557767        -14.8362223
           1.6e+10      0.0410262879        -9.85246265        0.936897089         -18.232566        0.936897089         -18.232566        0.064172375        -14.2839453
