! Created Fri Dec 11 14:07:12 2020
# hz S ma R 50
! 2 Port Network Data from Sweep1.SP1.SP block
! freq  magS11  angS11  magS21  angS21  magS12  angS12  magS22  angS22  
!     
           1.4e+10       0.113776277        -167.443329        0.765213193         -111.81579        0.765213193         -111.81579         0.11419904        -170.685886
          1.41e+10       0.109828418        -167.174358        0.765587984        -112.640551        0.765587984        -112.640551        0.109914243        -170.595919
          1.42e+10       0.105849251        -166.800974        0.765960959        -113.468823        0.765960959        -113.468823        0.105578992        -170.412057
          1.43e+10       0.101846936        -166.309115        0.766330663        -114.300649        0.766330663        -114.300649         0.10119943        -170.120156
          1.44e+10      0.0978312498         -165.68244        0.766695602        -115.136073        0.766695602        -115.136073       0.0967830583        -169.703335
          1.45e+10      0.0938139332        -164.901954        0.767054248        -115.975135        0.767054248        -115.975135       0.0923390853         -169.14135
          1.46e+10      0.0898091333         -163.94561        0.767405036        -116.817872        0.767405036        -116.817872       0.0878788832        -168.409842
          1.47e+10      0.0858339404        -162.787898        0.767746367        -117.664319        0.767746367        -117.664319        0.083416582        -167.479405
          1.48e+10      0.0819090447        -161.399491        0.768076611        -118.514509        0.768076611        -118.514509       0.0789698513        -166.314493
          1.49e+10      0.0780595248        -159.747027        0.768394106        -119.368473        0.768394106        -119.368473       0.0745609241        -164.872171
           1.5e+10      0.0743157661        -157.793202        0.768697165         -120.22624        0.768697165         -120.22624        0.070217931        -163.100811
          1.51e+10      0.0707144807        -155.497439        0.768984072        -121.087833        0.768984072        -121.087833       0.0659766125        -160.938966
          1.52e+10      0.0672997459        -152.817508        0.769253091        -121.953278        0.769253091        -121.953278       0.0618824532        -158.314957
          1.53e+10      0.0641238852        -149.712658        0.769502467        -122.822594        0.769502467        -122.822594       0.0579931937        -155.148133
          1.54e+10       0.061247879        -146.148806        0.769730425        -123.695798        0.769730425        -123.695798       0.0543814646        -151.353547
          1.55e+10      0.0587408249        -142.106234        0.769935175        -124.572904        0.769935175        -124.572904       0.0511368641        -146.852584
          1.56e+10      0.0566778261        -137.589505        0.770114916        -125.453921        0.770114916        -125.453921       0.0483661023        -141.592334
          1.57e+10      0.0551357305        -132.637989        0.770267831        -126.338856        0.770267831        -126.338856       0.0461890308        -135.574568
          1.58e+10      0.0541865556        -127.333539        0.770392095         -127.22771        0.770392095         -127.22771        0.044728158        -128.888739
          1.59e+10      0.0538893309        -121.800684        0.770485871        -128.120479        0.770485871        -128.120479       0.0440909931        -121.732972
           1.6e+10      0.0542822062        -116.195852        0.770547316        -129.017155        0.770547316        -129.017155       0.0443490127        -114.401285
