! Created Fri Dec 11 14:14:40 2020
# hz S ma R 50
! 2 Port Network Data from Sweep1.SP1.SP block
! freq  magS11  angS11  magS21  angS21  magS12  angS12  magS22  angS22  
!     
           1.4e+10       0.127557782        -83.4112343        0.932435327        -9.16985049        0.932435326        -9.16985052        0.138505357        -71.7697126
          1.41e+10       0.127068299        -83.4382744        0.932388051         -9.3185459         0.93238805        -9.31854593        0.138051655        -71.7759512
          1.42e+10       0.126590118          -83.46549        0.932340032        -9.46659299        0.932340031        -9.46659301        0.137608449        -71.7831394
          1.43e+10        0.12612301        -83.4929071        0.932291299        -9.61400559        0.932291298        -9.61400562        0.137175523        -71.7912915
          1.44e+10       0.125666754        -83.5205516        0.932241883         -9.7607972        0.932241882        -9.76079723        0.136752667        -71.8004213
          1.45e+10       0.125221131        -83.5484486        0.932191811        -9.90698093        0.932191809        -9.90698095        0.136339677        -71.8105428
          1.46e+10       0.124785932        -83.5766233         0.93214111        -10.0525695        0.932141108        -10.0525696        0.135936355        -71.8216697
          1.47e+10       0.124360949        -83.6051002        0.932089805        -10.1975754        0.932089804        -10.1975754        0.135542508        -71.8338153
          1.48e+10       0.123945983        -83.6339039        0.932037921        -10.3420107         0.93203792        -10.3420107         0.13515795        -71.8469931
          1.49e+10       0.123540835        -83.6630581        0.931985482        -10.4858871        0.931985481        -10.4858871        0.134782499        -71.8612162
           1.5e+10       0.123145316        -83.6925868        0.931932509        -10.6292162        0.931932508        -10.6292162        0.134415977        -71.8764977
          1.51e+10       0.122759237        -83.7225132        0.931879024         -10.772009        0.931879023         -10.772009        0.134058214        -71.8928504
          1.52e+10       0.122382417        -83.7528603        0.931825047        -10.9142765        0.931825046        -10.9142765        0.133709041        -71.9102873
          1.53e+10       0.122014675         -83.783651        0.931770597        -11.0560292        0.931770596        -11.0560292        0.133368296        -71.9288209
          1.54e+10       0.121655837        -83.8149075        0.931715693        -11.1972775        0.931715691        -11.1972776         0.13303582        -71.9484638
          1.55e+10       0.121305733        -83.8466519        0.931660351        -11.3380315         0.93166035        -11.3380315        0.132711459        -71.9692285
          1.56e+10       0.120964195         -83.878906        0.931604589        -11.4783009        0.931604588        -11.4783009        0.132395063        -71.9911272
          1.57e+10       0.120631059        -83.9116911        0.931548422        -11.6180953        0.931548421        -11.6180953        0.132086485        -72.0141724
          1.58e+10       0.120306165        -83.9450284        0.931491865         -11.757424        0.931491864         -11.757424        0.131785583         -72.038376
          1.59e+10       0.119989356        -83.9789384        0.931434933        -11.8962961        0.931434932        -11.8962961        0.131492216          -72.06375
           1.6e+10       0.119680479        -84.0134416        0.931377639        -12.0347205        0.931377637        -12.0347205         0.13120625        -72.0903065
