! Created Fri Dec 11 14:14:19 2020
# hz S ma R 50
! 2 Port Network Data from Sweep1.SP1.SP block
! freq  magS11  angS11  magS21  angS21  magS12  angS12  magS22  angS22  
!     
           1.4e+10      0.0874875466         24.8502159        0.918033886        -20.4042314        0.918033886        -20.4042314        0.107712232         25.3407464
          1.41e+10      0.0878227492         24.9801594        0.917958355        -20.5552113        0.917958355        -20.5552113        0.108244014         25.3783785
          1.42e+10      0.0881613052         25.1096339        0.917882645        -20.7063766        0.917882645        -20.7063767        0.108779364         25.4147823
          1.43e+10      0.0885032384         25.2386397        0.917806747        -20.8577305        0.917806747        -20.8577305        0.109318307         25.4499586
          1.44e+10      0.0888485734         25.3671779        0.917730651        -21.0092759        0.917730651         -21.009276        0.109860873         25.4839082
          1.45e+10      0.0891973357         25.4952498        0.917654346        -21.1610161        0.917654346        -21.1610161        0.110407088         25.5166319
          1.46e+10      0.0895495515         25.6228574        0.917577823         -21.312954        0.917577823        -21.3129541        0.110956981           25.54813
          1.47e+10       0.089905248         25.7500031        0.917501069        -21.4650929        0.917501069         -21.465093        0.111510578         25.5784031
          1.48e+10      0.0902644537         25.8766899        0.917424073         -21.617436        0.917424073        -21.6174361        0.112067908         25.6074512
          1.49e+10      0.0906271977         26.0029211        0.917346822        -21.7699865        0.917346822        -21.7699866        0.112628997         25.6352746
           1.5e+10      0.0909935106         26.1287005        0.917269304        -21.9227477        0.917269304        -21.9227478        0.113193875         25.6618731
          1.51e+10       0.091363424         26.2540321        0.917191505        -22.0757229        0.917191505         -22.075723        0.113762568         25.6872468
          1.52e+10      0.0917369709         26.3789205         0.91711341        -22.2289154         0.91711341        -22.2289155        0.114335104         25.7113954
          1.53e+10      0.0921141854         26.5033704        0.917035006        -22.3823286        0.917035006        -22.3823286        0.114911511         25.7343185
          1.54e+10      0.0924951031         26.6273869        0.916956276        -22.5359658        0.916956276        -22.5359658        0.115491816         25.7560158
          1.55e+10      0.0928797611         26.7509753        0.916877206        -22.6898305        0.916877206        -22.6898306        0.116076049         25.7764866
          1.56e+10      0.0932681978         26.8741412        0.916797777        -22.8439262        0.916797777        -22.8439262        0.116664236         25.7957303
          1.57e+10      0.0936604532         26.9968903        0.916717973        -22.9982562        0.916717973        -22.9982563        0.117256406         25.8137463
          1.58e+10       0.094056569         27.1192286        0.916637776        -23.1528243        0.916637776        -23.1528243        0.117852587         25.8305336
          1.59e+10      0.0944565882         27.2411619        0.916557168        -23.3076338        0.916557168        -23.3076339        0.118452806         25.8460915
           1.6e+10      0.0948605559         27.3626964        0.916476128        -23.4626884        0.916476128        -23.4626885        0.119057094         25.8604189
