! Created Fri Dec 11 14:13:16 2020
# hz S ma R 50
! 2 Port Network Data from Sweep1.SP1.SP block
! freq  magS11  angS11  magS21  angS21  magS12  angS12  magS22  angS22  
!     
           1.4e+10        0.20713987        -83.1228123        0.907375488        -3.54210747        0.907375488        -3.54210747        0.222297901        -71.5314275
          1.41e+10       0.205988751         -83.216456        0.907514802        -3.72425086        0.907514802        -3.72425086        0.221225259        -71.5732771
          1.42e+10       0.204856251        -83.3091562        0.907649635        -3.90527863        0.907649635        -3.90527863        0.220171069        -71.6148504
          1.43e+10       0.203742029        -83.4009374        0.907780125        -4.08521237        0.907780125        -4.08521237        0.219134959        -71.6561783
          1.44e+10       0.202645752        -83.4918243        0.907906407        -4.26407312        0.907906407        -4.26407312        0.218116568        -71.6972909
          1.45e+10       0.201567096        -83.5818409        0.908028613        -4.44188141        0.908028613        -4.44188141        0.217115541        -71.7382176
          1.46e+10       0.200505746        -83.6710114        0.908146869        -4.61865722        0.908146869        -4.61865722        0.216131531        -71.7789872
          1.47e+10       0.199461394        -83.7593594        0.908261302        -4.79442009        0.908261302        -4.79442009        0.215164201        -71.8196277
          1.48e+10        0.19843374        -83.8469086        0.908372032        -4.96918905        0.908372032        -4.96918905        0.214213219        -71.8601665
          1.49e+10       0.197422493        -83.9336825        0.908479179        -5.14298269        0.908479179        -5.14298269        0.213278261        -71.9006304
           1.5e+10       0.196427368        -84.0197043        0.908582858        -5.31581919        0.908582858        -5.31581919        0.212359011        -71.9410454
          1.51e+10       0.195448087        -84.1049972        0.908683182        -5.48771626        0.908683182        -5.48771626        0.211455158        -71.9814369
          1.52e+10        0.19448438        -84.1895842        0.908780262        -5.65869124        0.908780262        -5.65869124        0.210566399        -72.0218296
          1.53e+10       0.193535983        -84.2734882        0.908874205        -5.82876107        0.908874205        -5.82876107        0.209692437        -72.0622477
          1.54e+10       0.192602637        -84.3567321        0.908965115        -5.99794231        0.908965115        -5.99794231        0.208832982        -72.1027144
          1.55e+10       0.191684091        -84.4393386        0.909053097        -6.16625116        0.909053097        -6.16625116         0.20798775        -72.1432527
          1.56e+10       0.190780097        -84.5213302        0.909138249        -6.33370347        0.909138249        -6.33370347        0.207156462        -72.1838845
          1.57e+10       0.189890415        -84.6027296        0.909220669        -6.50031474        0.909220669        -6.50031474        0.206338845        -72.2246314
          1.58e+10       0.189014811        -84.6835592        0.909300453        -6.66610017        0.909300453        -6.66610017        0.205534634        -72.2655141
          1.59e+10       0.188153053        -84.7638413        0.909377694         -6.8310746        0.909377694         -6.8310746        0.204743567        -72.3065528
           1.6e+10       0.187304916        -84.8435983        0.909452483        -6.99525261        0.909452483        -6.99525261        0.203965389         -72.347767
