! Created Fri Dec 11 14:12:36 2020
# hz S ma R 50
! 2 Port Network Data from Sweep1.SP1.SP block
! freq  magS11  angS11  magS21  angS21  magS12  angS12  magS22  angS22  
!     
           1.4e+10       0.182422445         41.7450997        0.894201165        -25.7621382        0.894201165        -25.7621382        0.201235103         38.1264063
          1.41e+10       0.183799343         41.7387503        0.893811254        -25.9658285        0.893811254        -25.9658285        0.202760518         38.0570417
          1.42e+10       0.185186001         41.7301465        0.893416423        -26.1700444        0.893416423        -26.1700444        0.204294807           37.98551
          1.43e+10       0.186582511         41.7193007        0.893016603        -26.3747925        0.893016603        -26.3747925         0.20583805         37.9118338
          1.44e+10       0.187988965         41.7062247        0.892611727        -26.5800798        0.892611727        -26.5800798        0.207390332         37.8360353
          1.45e+10       0.189405456         41.6909303        0.892201724        -26.7859131        0.892201724        -26.7859131        0.208951739         37.7581354
          1.46e+10       0.190832078         41.6734287        0.891786523        -26.9922996        0.891786523        -26.9922996         0.21052236         37.6781548
          1.47e+10       0.192268928         41.6537308        0.891366051        -27.1992465        0.891366051        -27.1992465        0.212102286         37.5961129
          1.48e+10       0.193716103         41.6318472        0.890940233        -27.4067613        0.890940233        -27.4067613        0.213691612         37.5120286
          1.49e+10         0.1951737         41.6077882        0.890508993        -27.6148513        0.890508993        -27.6148513        0.215290434         37.4259198
           1.5e+10       0.196641821         41.5815638        0.890072252        -27.8235243        0.890072252        -27.8235243        0.216898851         37.3378039
          1.51e+10       0.198120566         41.5531834        0.889629931        -28.0327879        0.889629931        -28.0327879        0.218516965         37.2476971
          1.52e+10       0.199610039         41.5226564        0.889181947        -28.2426501        0.889181947        -28.2426501        0.220144879         37.1556151
          1.53e+10       0.201110342         41.4899916        0.888728217         -28.453119        0.888728217         -28.453119        0.221782701         37.0615726
          1.54e+10       0.202621583         41.4551976        0.888268653        -28.6642026        0.888268653        -28.6642026        0.223430538         36.9655835
          1.55e+10       0.204143869         41.4182824        0.887803167        -28.8759094        0.887803167        -28.8759094        0.225088503         36.8676612
          1.56e+10        0.20567731         41.3792541        0.887331669        -29.0882477        0.887331669        -29.0882477        0.226756707         36.7678179
          1.57e+10       0.207222015         41.3381199        0.886854065        -29.3012261        0.886854065        -29.3012261        0.228435268         36.6660653
          1.58e+10       0.208778097          41.294887        0.886370259        -29.5148534        0.886370259        -29.5148534        0.230124302         36.5624141
          1.59e+10       0.210345672         41.2495621        0.885880154        -29.7291385        0.885880154        -29.7291385         0.23182393         36.4568743
           1.6e+10       0.211924855         41.2021516        0.885383648        -29.9440902        0.885383648        -29.9440902        0.233534275         36.3494552
