! Created Fri Dec 11 14:11:43 2020
# hz S ma R 50
! 2 Port Network Data from Sweep1.SP1.SP block
! freq  magS11  angS11  magS21  angS21  magS12  angS12  magS22  angS22  
!     
           1.4e+10       0.170748046         92.6879793        0.878369679         1.66984257        0.878369679         1.66984257        0.203597611         84.9522946
          1.41e+10       0.167395108         91.7631376        0.879633909         1.23167944        0.879633909         1.23167944        0.199776955         84.4672971
          1.42e+10       0.164064037         90.8316011        0.880865013        0.795566898        0.880865013        0.795566898        0.195974139         83.9817105
          1.43e+10        0.16075486         89.8927568        0.882063511        0.361474813        0.882063511        0.361474813        0.192189036         83.4953749
          1.44e+10       0.157467622         88.9459551        0.883229911      -0.0706264864        0.883229911      -0.0706264864        0.188421517         83.0081206
          1.45e+10       0.154202389         87.9905072        0.884364713       -0.500766235        0.884364713       -0.500766235         0.18467145         82.5197682
          1.46e+10       0.150959249         87.0256812        0.885468405        -0.92897323        0.885468405        -0.92897323        0.180938701         82.0301271
          1.47e+10        0.14773831         86.0506982        0.886541469        -1.35527583        0.886541469        -1.35527583        0.177223136         81.5389946
          1.48e+10       0.144539708         85.0647286        0.887584372        -1.77970196        0.887584372        -1.77970196        0.173524617          81.046155
          1.49e+10       0.141363603         84.0668871        0.888597576        -2.20227913        0.888597576        -2.20227913        0.169843007         80.5513782
           1.5e+10       0.138210188         83.0562277         0.88958153        -2.62303439         0.88958153        -2.62303439         0.16617817         80.0544179
          1.51e+10       0.135079684          82.031738        0.890536678         -3.0419944        0.890536678         -3.0419944        0.162529967         79.5550105
          1.52e+10       0.131972348         80.9923334        0.891463451        -3.45918539        0.891463451        -3.45918539        0.158898264         79.0528732
          1.53e+10       0.128888475         79.9368499        0.892362272        -3.87463316        0.892362272        -3.87463316        0.155282923         78.5477014
          1.54e+10       0.125828401         78.8640371        0.893233558        -4.28836311        0.893233558        -4.28836311        0.151683813         78.0391672
          1.55e+10       0.122792507         77.7725498        0.894077713        -4.70040024        0.894077713        -4.70040024          0.1481008         77.5269159
          1.56e+10       0.119781223         76.6609387        0.894895137        -5.11076913        0.894895137        -5.11076913        0.144533758         77.0105637
          1.57e+10       0.116795036         75.5276411        0.895686219        -5.51949397        0.895686219        -5.51949397        0.140982561         76.4896939
          1.58e+10       0.113834489         74.3709696        0.896451341        -5.92659857        0.896451341        -5.92659857        0.137447087         75.9638531
          1.59e+10       0.110900194         73.1891002        0.897190876        -6.33210632        0.897190876        -6.33210632        0.133927221         75.4325467
           1.6e+10       0.107992835         71.9800594        0.897905193        -6.73604027        0.897905193        -6.73604027        0.130422851         74.8952339
