! Created Fri Dec 11 14:10:53 2020
# hz S ma R 50
! 2 Port Network Data from Sweep1.SP1.SP block
! freq  magS11  angS11  magS21  angS21  magS12  angS12  magS22  angS22  
!     
           1.4e+10      0.0797336481        -28.8597507        0.909974717        -43.9062052        0.909974717        -43.9062052       0.0197180086        -103.500407
          1.41e+10      0.0799618302        -28.8013111        0.909999413        -44.2692756        0.909999413        -44.2692756       0.0183800682        -105.011599
          1.42e+10       0.080194923        -28.7258021        0.910025723        -44.6348933        0.910025723        -44.6348933       0.0170094626        -106.623355
          1.43e+10      0.0804343392        -28.6328803        0.910052598        -45.0031087        0.910052598        -45.0031087       0.0156069663        -108.365376
          1.44e+10      0.0806815814        -28.5222661         0.91007896        -45.3739691         0.91007896        -45.3739691       0.0141736821        -110.280784
          1.45e+10      0.0809382383        -28.3937497        0.910103705        -45.7475178        0.910103705        -45.7475178       0.0127112232        -112.434443
          1.46e+10      0.0812059793         -28.247197        0.910125712        -46.1237947        0.910125712        -46.1237947       0.0112220554        -114.928237
          1.47e+10      0.0814865502         -28.082555        0.910143843        -46.5028359        0.910143843        -46.5028359      0.00971017823        -117.931015
          1.48e+10      0.0817817657        -27.8998569        0.910156956        -46.8846739        0.910156956        -46.8846739      0.00818260462        -121.742068
          1.49e+10      0.0820935036        -27.6992264        0.910163902        -47.2693377        0.910163902        -47.2693377      0.00665293392        -126.939031
           1.5e+10      0.0824236967        -27.4808818        0.910163538        -47.6568526        0.910163538        -47.6568526       0.0051512321        -134.760444
          1.51e+10      0.0827743243        -27.2451384        0.910154726        -48.0472407        0.910154726        -48.0472407      0.00375595272        -148.163587
          1.52e+10      0.0831474043        -26.9924105         0.91013634        -48.4405207         0.91013634        -48.4405207       0.0027039665        -173.834248
          1.53e+10      0.0835449836        -26.7232132        0.910107271        -48.8367083        0.910107271        -48.8367083      0.00254645161         146.306068
          1.54e+10      0.0839691285        -26.4381613        0.910066431        -49.2358164        0.910066431        -49.2358164      0.00345903851         115.355245
          1.55e+10      0.0844219154        -26.1379688        0.910012756        -49.6378552        0.910012756        -49.6378552      0.00490857785         99.0898094
          1.56e+10      0.0849054209        -25.8234465        0.909945208        -50.0428325        0.909945208        -50.0428325      0.00657384055         90.0069751
          1.57e+10      0.0854217119        -25.4954983        0.909862779         -50.450754        0.909862779         -50.450754      0.00834712244         84.2025954
          1.58e+10       0.085972836        -25.1551168        0.909764494        -50.8616236        0.909764494        -50.8616236       0.0101891948         80.0720682
          1.59e+10      0.0865608122         -24.803377        0.909649412        -51.2754433        0.909649412        -51.2754433       0.0120831386         76.8929034
           1.6e+10      0.0871876216        -24.4414302        0.909516628         -51.692214        0.909516628         -51.692214       0.0140205706         74.3018695
