! Created Fri Dec 11 14:16:00 2020
# hz S ma R 50
! 2 Port Network Data from Sweep1.SP1.SP block
! freq  magS11  angS11  magS21  angS21  magS12  angS12  magS22  angS22  
!     
           1.4e+10      0.0510574111        -38.7849379         0.92928183        -14.2804612         0.92928183        -14.2804612       0.0764759371        -31.4260991
          1.41e+10      0.0508957196        -37.6196444        0.928987962         -14.459893        0.928987962         -14.459893       0.0764094889        -30.7210091
          1.42e+10      0.0507656667        -36.4627664         0.92869488        -14.6384542         0.92869488        -14.6384542       0.0763625798        -30.0254496
          1.43e+10      0.0506663079        -35.3158033        0.928402641        -14.8161623        0.928402641        -14.8161623       0.0763344733        -29.3396825
          1.44e+10      0.0505966787        -34.1801771        0.928111299        -14.9930342        0.928111299        -14.9930342       0.0763244482        -28.6639416
          1.45e+10      0.0505557992        -33.0572251        0.927820905        -15.1690865        0.927820905        -15.1690865       0.0763317987        -27.9984334
          1.46e+10      0.0505426774        -31.9481947        0.927531508        -15.3443354        0.927531508        -15.3443354       0.0763558354        -27.3433382
          1.47e+10      0.0505563131        -30.8542388        0.927243157        -15.5187965        0.927243157        -15.5187965       0.0763958851        -26.6988105
          1.48e+10       0.050595702        -29.7764125        0.926955898        -15.6924852        0.926955898        -15.6924852       0.0764512914        -26.0649807
          1.49e+10      0.0506598393        -28.7156716        0.926669773        -15.8654165        0.926669773        -15.8654165       0.0765214149        -25.4419553
           1.5e+10       0.050747723        -27.6728716        0.926384826        -16.0376049        0.926384826        -16.0376049       0.0766056333        -24.8298188
          1.51e+10      0.0508583575        -26.6487687        0.926101099        -16.2090647        0.926101099        -16.2090647       0.0767033417        -24.2286344
          1.52e+10       0.050990757        -25.6440207        0.925818629        -16.3798097        0.925818629        -16.3798097       0.0768139526        -23.6384451
          1.53e+10      0.0511439481        -24.6591895        0.925537456        -16.5498535        0.925537456        -16.5498535       0.0769368957         -23.059275
          1.54e+10      0.0513169724        -23.6947447        0.925257616        -16.7192094        0.925257616        -16.7192094       0.0770716182        -22.4911307
          1.55e+10      0.0515088894        -22.7510666        0.924979144        -16.8878902        0.924979144        -16.8878902       0.0772175844        -21.9340019
          1.56e+10      0.0517187783        -21.8284513        0.924702075        -17.0559086        0.924702075        -17.0559086       0.0773742761         -21.387863
          1.57e+10      0.0519457399        -20.9271149        0.924426441        -17.2232768        0.924426441        -17.2232768       0.0775411917        -20.8526741
          1.58e+10      0.0521888983        -20.0471985        0.924152275        -17.3900069        0.924152275        -17.3900069       0.0777178465        -20.3283819
          1.59e+10      0.0524474021        -19.1887741        0.923879608        -17.5561107        0.923879608        -17.5561107       0.0779037726        -19.8149211
           1.6e+10      0.0527204258         -18.351849        0.923608469        -17.7215996        0.923608469        -17.7215996       0.0780985181        -19.3122151
