! Created Fri Dec 11 14:16:41 2020
# hz S ma R 50
! 2 Port Network Data from Sweep1.SP1.SP block
! freq  magS11  angS11  magS21  angS21  magS12  angS12  magS22  angS22  
!     
           1.4e+10      0.0941426237         25.6090687        0.910527415        -19.9291008        0.910527415        -19.9291008        0.118800292         24.3543638
          1.41e+10      0.0945288338         26.0670058        0.910838767        -20.0999575        0.910838767        -20.0999575        0.119263143         24.6410036
          1.42e+10       0.094930673         26.5195487        0.911145912        -20.2710108        0.911145912        -20.2710108        0.119737186         24.9239257
          1.43e+10      0.0953479299          26.966505        0.911448857        -20.4422558        0.911448857        -20.4422558        0.120222298         25.2030522
          1.44e+10      0.0957803869         27.4076952        0.911747611        -20.6136877        0.911747611        -20.6136877        0.120718354         25.4783099
          1.45e+10      0.0962278212         27.8429525        0.912042184        -20.7853016        0.912042184        -20.7853016        0.121225228         25.7496296
          1.46e+10      0.0966900052         28.2721222        0.912332587         -20.957093        0.912332587         -20.957093        0.121742791         26.0169471
          1.47e+10      0.0971667071         28.6950623        0.912618834        -21.1290572        0.912618834        -21.1290572        0.122270909          26.280202
          1.48e+10      0.0976576913         29.1116427        0.912900937        -21.3011897        0.912900937        -21.3011897         0.12280945         26.5393387
          1.49e+10      0.0981627192         29.5217454        0.913178911         -21.473486        0.913178911         -21.473486        0.123358278         26.7943055
           1.5e+10      0.0986815494         29.9252638        0.913452774         -21.645942        0.913452774         -21.645942        0.123917256          27.045055
          1.51e+10      0.0992139385          30.322103        0.913722543        -21.8185533        0.913722543        -21.8185533        0.124486245         27.2915437
          1.52e+10      0.0997596413          30.712179        0.913988234        -21.9913157        0.913988234        -21.9913157        0.125065105         27.5337324
          1.53e+10       0.100318412         31.0954186        0.914249869        -22.1642252        0.914249869        -22.1642252        0.125653696         27.7715854
          1.54e+10       0.100890002         31.4717591        0.914507467        -22.3372777        0.914507467        -22.3372777        0.126251874         28.0050711
          1.55e+10       0.101474166         31.8411476         0.91476105        -22.5104695         0.91476105        -22.5104695        0.126859499         28.2341613
          1.56e+10       0.102070655         32.2035411        0.915010639        -22.6837966        0.915010639        -22.6837966        0.127476425         28.4588316
          1.57e+10       0.102679222         32.5589058        0.915256258        -22.8572554        0.915256258        -22.8572554        0.128102509         28.6790609
          1.58e+10       0.103299622         32.9072166        0.915497931        -23.0308421        0.915497931        -23.0308421        0.128737606         28.8948317
          1.59e+10       0.103931609          33.248457        0.915735682        -23.2045532        0.915735682        -23.2045532        0.129381571         29.1061295
           1.6e+10       0.104574939         33.5826187        0.915969538        -23.3783853        0.915969538        -23.3783853         0.13003426         29.3129431
