! Created Fri Dec 11 14:08:39 2020
# hz S ma R 50
! 2 Port Network Data from Sweep1.SP1.SP block
! freq  magS11  angS11  magS21  angS21  magS12  angS12  magS22  angS22  
!     
           1.4e+10       0.120333749        -88.0652754        0.781764073        -22.5874916        0.781764073        -22.5874916        0.129947319        -60.3160853
          1.41e+10       0.127668975        -89.7268594         0.78119886        -23.3821215         0.78119886        -23.3821215        0.134830186        -63.6499976
          1.42e+10       0.134944456        -91.2853554        0.780547918        -24.1708592        0.780547918        -24.1708592        0.139902722        -66.7712427
          1.43e+10       0.142155186        -92.7565087        0.779813827        -24.9536788        0.779813827        -24.9536788        0.145131385        -69.6965022
          1.44e+10       0.149297111        -94.1528485         0.77899916        -25.7305582         0.77899916        -25.7305582        0.150486754        -72.4421169
          1.45e+10        0.15636692        -95.4844617        0.778106483        -26.5014786        0.778106483        -26.5014786        0.155943135        -75.0236526
          1.46e+10       0.163361884        -96.7595557        0.777138348        -27.2664247        0.777138348        -27.2664247        0.161478151        -77.4556511
          1.47e+10       0.170279749        -97.9848742         0.77609729        -28.0253843         0.77609729        -28.0253843        0.167072345        -79.7515124
          1.48e+10       0.177118644        -99.1660091        0.774985825        -28.7783485        0.774985825        -28.7783485        0.172708812        -81.9234645
          1.49e+10       0.183877019        -100.307636        0.773806445        -29.5253114        0.773806445        -29.5253114        0.178372864        -83.9825901
           1.5e+10         0.1905536        -101.413695        0.772561616        -30.2662707        0.772561616        -30.2662707        0.184051742         -85.938886
          1.51e+10       0.197147346        -102.487533        0.771253774        -31.0012273        0.771253774        -31.0012273        0.189734349        -87.8013421
          1.52e+10       0.203657423        -103.532008        0.769885321        -31.7301855        0.769885321        -31.7301855        0.195411036         -89.578027
          1.53e+10       0.210083182        -104.549583        0.768458629        -32.4531533        0.768458629        -32.4531533        0.201073406        -91.2761756
          1.54e+10       0.216424138        -105.542387        0.766976029        -33.1701421        0.766976029        -33.1701421        0.206714147        -92.9022735
          1.55e+10       0.222679959        -106.512274        0.765439819        -33.8811669        0.765439819        -33.8811669        0.212326895        -94.4621361
          1.56e+10       0.228850447        -107.460866        0.763852259        -34.5862463        0.763852259        -34.5862463        0.217906108        -95.9609819
          1.57e+10        0.23493553        -108.389588        0.762215571         -35.285402        0.762215571         -35.285402        0.223446966        -97.4034982
          1.58e+10       0.240935247        -109.299701        0.760531938        -35.9786592        0.760531938        -35.9786592        0.228945276        -98.7939007
          1.59e+10       0.246849741        -110.192321        0.758803503        -36.6660458        0.758803503        -36.6660458        0.234397403        -100.135986
           1.6e+10       0.252679246        -111.068442         0.75703237        -37.3475926         0.75703237        -37.3475926        0.239800196         -101.43318
